! S-parameter export from FEKO
!   Filename:      circular_2wg_1mode_SParameter1.s2p
!   Creation date: 2019-12-28 13:03:32
! 
# Hz S MA R  0.00000E+00  0.00000E+00
! 
!     FREQ          |S11|        <S11       |S21|        <S21       |S12|        <S12       |S22|        <S22
 4.0000000E+09  1.3221102E-01    0.001  9.0656231E-01    0.000  9.0656238E-01   -0.000  1.4548908E-01  180.000
 4.5000000E+09  9.5809964E-01 -118.921  1.2950780E+00  -15.236  1.2950782E+00  -15.236  9.9999935E-01   59.528
 5.0000000E+09  7.1486716E-02  172.427  9.9743902E-01   -5.305  9.9744460E-01   -5.305  7.1487646E-02   -3.039
 5.5000000E+09  2.4755525E-02  168.326  9.9969019E-01   -7.703  9.9968853E-01   -7.703  2.4750287E-02   -3.713
 6.0000000E+09  8.4033120E-03  163.801  9.9996280E-01   -9.667  9.9996319E-01   -9.667  8.4005817E-03   -3.144
 6.5000000E+09  3.5276696E-04   90.964  9.9999955E-01  -11.428  1.0000019E+00  -11.428  3.5392880E-04   66.346
 7.0000000E+09  4.1151776E-03  -17.706  9.9999193E-01  -13.038  9.9998926E-01  -13.038  4.1159653E-03  171.627
 7.5000000E+09  7.7923070E-03  -21.351  9.9996763E-01  -14.589  9.9996849E-01  -14.589  7.8057040E-03  172.139
 8.0000000E+09  1.0207275E-02  -25.895  9.9994651E-01  -16.106  9.9994919E-01  -16.106  1.0217074E-02  173.695
 8.5000000E+09  1.2127730E-02  -31.326  9.9992641E-01  -17.601  9.9992203E-01  -17.602  1.2128491E-02  176.117
 9.0000000E+09  1.4678191E-02  -46.355  9.9989065E-01  -19.219  9.9988426E-01  -19.219  1.4682598E-02 -172.090
 9.5000000E+09  8.3651986E-03  -23.006  9.9416102E-01  -20.236  9.9416262E-01  -20.236  1.9837434E-02  161.300
 1.0000000E+10  1.1988560E-02  -25.879  9.9686552E-01  -21.617  9.9685743E-01  -21.617  1.8021198E-02  161.456
 1.0500000E+10  1.3346758E-02  -28.140  9.9748200E-01  -22.974  9.9747834E-01  -22.974  1.8122844E-02  161.069
 1.1000000E+10  1.4126679E-02  -31.019  9.9779147E-01  -24.321  9.9778733E-01  -24.321  1.8263118E-02  161.068
 1.1500000E+10  1.4975519E-02  -33.408  9.9796790E-01  -25.658  9.9799462E-01  -25.657  1.8731122E-02  160.782
 1.2000000E+10  1.5653200E-02  -35.347  9.9809356E-01  -26.987  9.9810799E-01  -26.987  1.9124012E-02  160.112
 1.2500000E+10  1.6495809E-02  -36.335  9.9818747E-01  -28.332  9.9819169E-01  -28.332  1.9775036E-02  158.737
 1.3000000E+10  1.7383194E-02  -42.065  9.9680030E-01  -29.613  9.9680243E-01  -29.614  1.8260313E-02  155.991
 1.3500000E+10  1.7257808E-02  -45.260  9.9729316E-01  -30.867  9.9729610E-01  -30.867  1.8929568E-02  160.837
 1.4000000E+10  1.7463435E-02  -47.531  9.9747738E-01  -32.160  9.9747703E-01  -32.160  1.9552405E-02  160.632
 1.4500000E+10  1.7698994E-02  -50.015  9.9755154E-01  -33.450  9.9755538E-01  -33.450  1.9989796E-02  160.480
 1.5000000E+10  1.7982407E-02  -53.355  9.9758474E-01  -34.748  9.9757854E-01  -34.749  2.0361527E-02  161.020
 1.5500000E+10  1.8362790E-02  -56.796  9.9759024E-01  -36.049  9.9760689E-01  -36.049  2.0850890E-02  161.644
 1.6000000E+10  1.8834951E-02  -60.907  9.9756754E-01  -37.362  9.9756537E-01  -37.361  2.1411926E-02  162.926
 1.6500000E+10  2.0406020E-02  -71.397  9.9735461E-01  -38.814  9.9735470E-01  -38.814  2.3202956E-02  169.498
 1.7000000E+10  1.4039878E-02  -75.950  9.9147793E-01  -39.904  9.9147893E-01  -39.903  2.7726689E-02  157.434
 1.7500000E+10  1.3821349E-02  -59.324  9.9313735E-01  -40.921  9.9314629E-01  -40.921  2.5363697E-02  148.764
 1.8000000E+10  1.5313715E-02  -60.401  9.9446817E-01  -42.188  9.9446978E-01  -42.188  2.4271545E-02  148.967
 1.8500000E+10  1.5992089E-02  -61.998  9.9499298E-01  -43.446  9.9498569E-01  -43.446  2.3946946E-02  148.638
 1.9000000E+10  1.6508176E-02  -64.457  9.9529055E-01  -44.713  9.9529023E-01  -44.713  2.3861172E-02  148.626
 1.9500000E+10  1.6881373E-02  -66.236  9.9548200E-01  -45.970  9.9548475E-01  -45.970  2.3876116E-02  148.100
 2.0000000E+10  1.7303228E-02  -68.259  9.9560377E-01  -47.234  9.9560433E-01  -47.233  2.4075148E-02  147.591
 2.0500000E+10  1.7753904E-02  -71.066  9.9530714E-01  -48.486  9.9530785E-01  -48.486  2.3833838E-02  146.199
 2.1000000E+10  1.7966007E-02  -73.707  9.9522402E-01  -49.724  9.9523558E-01  -49.724  2.3374247E-02  146.397
