! S-parameter export from POSTFEKO
! Filename: circular_2wg_7modes
! Creation date: 2019-12-29 17:07:23
! 
# Hz S MA R    5.0000000E+01 
  4.0000000E+09     1.2741468E-01    -4.7559167E-04     3.1635210E-06     2.0963277E+01     3.1005045E-02    -1.7999897E+02     1.0981944E-05    -1.0066749E+02   
                   1.9444515E-02    -1.4465557E-03     8.3614034E-06     9.2644441E+01     1.4389088E-02    -1.7999954E+02     9.0299527E-01    -1.2288229E-04   
                   7.0753136E-06    -1.0074793E+02     5.9765651E-02    -5.5382094E-04     1.0176800E-05     7.8803170E+01     3.8683458E-02     1.7999988E+02   
                   6.7249597E-06    -7.2049738E+01     2.8205610E-02     5.2188288E-03   
                   8.1740593E-06     9.8257503E+01     8.1899267E-03     2.0836991E-02     2.9592992E-06    -8.2659638E+01     7.2682393E-03     1.7999491E+02   
                   5.7704209E-07     1.7096168E+02     5.8396489E-03     2.0472400E-04     1.4552877E-06     9.9304011E+01     5.7470958E-06     9.6761411E+01   
                   6.9850499E-01    -1.7999999E+02     6.6320428E-06    -8.9655063E+01     5.3760832E-02     1.7999992E+02     9.6591336E-06     8.7187514E+01   
                   2.7824946E-02    -9.1826499E-03     9.5919025E-06    -8.4176199E+01   
                   3.1005305E-02     1.7999679E+02     4.4572073E-06    -9.2427098E+01     1.2602773E-02    -5.0164936E-04     3.0216404E-06     7.4844747E+01   
                   9.3486088E-03    -1.7999918E+02     3.0703419E-06    -1.1791997E+02     7.9988055E-03     5.7681212E-04     3.5398403E-02     1.7999594E+02   
                   3.0940043E-06     7.5576700E+01     5.8708327E-01    -1.0940629E-04     4.9337935E-06    -9.9802194E+01     6.2431926E-02     5.1025345E-04   
                   9.0799483E-06     6.6886484E+01     3.1612928E-02     1.7999947E+02   
                   9.1422482E-06    -9.2783458E+01     7.2665308E-03     1.7999583E+02     2.1891223E-06     8.7885242E+01     6.6590264E-03     4.3058296E-03   
                   1.5193374E-06    -1.0074553E+02     5.7088294E-03    -1.7999697E+02     1.2079898E-06    -7.9814260E+01     7.7471428E-06    -8.9265349E+01   
                   3.9642754E-02     3.7545504E-04     9.2412938E-06     9.1505762E+01     4.8893935E-01     1.7999984E+02     1.1454490E-05    -9.1385852E+01   
                   6.5415521E-02    -1.7999851E+02     1.3216947E-05     9.0219639E+01   
                   1.9448705E-02     1.9138244E-03     1.7145017E-06     1.3532285E+02     9.3472377E-03     1.7999370E+02     2.4647207E-06    -9.3428207E+01   
                   7.7704781E-03    -2.6482920E-03     1.7868179E-07    -4.0165823E+01     7.5373944E-03    -1.7999690E+02     2.0197592E-02    -3.8638194E-03   
                   4.3314008E-06     1.4525902E+02     4.2153253E-02     1.7999980E+02     1.7398629E-06     6.7823129E+01     4.1289022E-01     7.3817412E-07   
                   1.6467301E-06    -9.7273416E+01     6.7156016E-02     8.4274634E-05   
                   9.5434491E-06     9.0876135E+01     5.8398330E-03    -1.7251601E-02     3.6001512E-06    -1.0581179E+02     5.7069076E-03    -1.7999678E+02   
                   1.2467245E-06     5.7617202E+01     5.1767702E-03     5.7783322E-03     1.7515506E-06     8.7992645E+01     9.6975654E-06     8.3397178E+01   
                   1.9579554E-02     1.7999627E+02     9.8186127E-06    -9.1720322E+01     4.4812840E-02     1.3405672E-03     1.2388554E-05     9.2550714E+01   
                   3.4504483E-01     1.7999980E+02     1.3614972E-05    -9.0891349E+01   
                   1.4395279E-02     1.7999506E+02     2.2252514E-06     1.1893275E+02     7.9990042E-03    -2.3043650E-03     2.5517819E-06    -9.8737454E+01   
                   7.5371324E-03     1.7999651E+02     3.0335078E-06     1.0573541E+02     9.3203079E-03     1.3679675E-03     1.4222353E-02    -1.7999943E+02   
                   9.2220044E-07    -1.1552012E+02     2.1117004E-02     3.7547567E-04     3.8263229E-06     8.7567266E+01     4.3975642E-02    -1.7999915E+02   
                   2.8785200E-06    -7.7527460E+01     2.9081055E-01    -2.1792367E-05   
                   9.0299828E-01    -2.5350173E-05     6.1718360E-06     7.9452578E+01     3.5396380E-02     1.7999958E+02     9.4000057E-06    -9.1713191E+01   
                   2.0195780E-02    -2.8166257E-04     8.2178542E-06     8.7234401E+01     1.4219207E-02    -1.7999895E+02     1.4846044E-01    -1.7999946E+02   
                   7.5031281E-06    -1.1123607E+02     4.3073264E-02     1.2610004E-03     1.0729388E-05     8.4011995E+01     3.0803012E-02     1.7999932E+02   
                   8.3849530E-06    -6.6514374E+01     2.3346809E-02     3.8882620E-03   
                   8.8834078E-06    -8.8245070E+01     6.9850257E-01    -1.7999978E+02     3.6886084E-06     9.8351948E+01     3.9639737E-02     8.3517378E-04   
                   2.1900891E-06    -8.0997006E+01     1.9576485E-02     1.7999890E+02     3.2748237E-07    -1.1267274E+02     7.1692155E-06    -9.1491358E+01   
                   2.1113452E-02    -1.7999917E+02     8.9000788E-06     9.3023867E+01     2.0284620E-02     1.5818239E-03     1.2108072E-05    -9.2909460E+01   
                   1.7398915E-02     1.7999308E+02     1.2372653E-05     9.4909916E+01   
                   5.9764601E-02     4.6627931E-04     6.8651173E-06    -7.9951501E+01     5.8708268E-01    -2.2386293E-05     8.4088792E-06     8.6719617E+01   
                   4.2151959E-02     1.7999967E+02     9.9168030E-06    -9.1087414E+01     2.1115286E-02     3.7054345E-04     4.3070761E-02     1.4808361E-03   
                   7.7151458E-06     9.6445653E+01     2.3376729E-02    -1.7999763E+02     1.0803825E-05    -9.3415694E+01     1.9683982E-02     2.4782327E-03   
                   1.1473574E-05     9.1817356E+01     1.6154353E-02    -1.7999508E+02   
                   8.0078118E-06     8.6086757E+01     5.3761766E-02    -1.7999783E+02     4.4007246E-06    -9.4621845E+01     4.8893818E-01     1.7999988E+02   
                   2.5072072E-06     8.7354047E+01     4.4813004E-02    -2.4249941E-04     4.1074446E-07     1.3984089E+02     8.1799395E-06     9.3739720E+01   
                   2.0285244E-02    -1.2660514E-03     1.1212827E-05    -9.1012789E+01     2.0488075E-02    -1.7999718E+02     1.4382950E-05     9.0363963E+01   
                   1.8256294E-02     3.2083986E-03     1.6061760E-05    -9.1736809E+01   
                   3.8681051E-02    -1.7999931E+02     1.0359890E-05     8.8383260E+01     6.2431836E-02    -3.1098966E-04     9.7481898E-06    -8.8495500E+01   
                   4.1288811E-01    -2.7729400E-05     1.1539353E-05     8.7368743E+01     4.3973064E-02     1.7999986E+02     3.0799403E-02    -1.7999944E+02   
                   1.0536412E-05    -8.6284767E+01     1.9684243E-02     2.0429274E-03     1.2880735E-05     9.2975054E+01     1.7546253E-02    -1.7999702E+02   
                   1.4582287E-05    -9.5086954E+01     1.4816292E-02     4.6722839E-03   
                   7.4896402E-06    -9.9118634E+01     2.7824820E-02     4.0102964E-03     4.6423322E-06     7.6057872E+01     6.5413789E-02    -1.7999970E+02   
                   1.8183119E-06    -1.0109792E+02     3.4504553E-01    -1.7999993E+02     1.1556500E-06    -8.0850019E+01     1.0169258E-05    -1.0060201E+02   
                   1.7398941E-02    -1.7999183E+02     1.1384530E-05     8.6189546E+01     1.8257761E-02    -2.6228101E-04     1.4730400E-05    -8.5189931E+01   
                   1.6785829E-02    -1.7999930E+02     1.6957916E-05     8.7139127E+01   
                   2.8205799E-02    -1.0542598E-03     9.4688013E-06    -8.7206706E+01     3.1611945E-02    -1.7999824E+02     1.3964412E-05     8.7213931E+01   
                   6.7155593E-02    -5.0230149E-05     1.2336659E-05    -9.0356732E+01     2.9080915E-01     2.7118205E-05     2.3346533E-02     3.2199320E-03   
                   1.2116849E-05     8.8117729E+01     1.6155120E-02    -1.7999760E+02     1.6642770E-05    -9.0373526E+01     1.4816660E-02     4.9741632E-03   
                   1.5124160E-05     8.7121655E+01     1.2128373E-02    -1.7999679E+02   
  4.5000000E+09     9.4762468E-01    -1.1898759E+02     1.5809659E-05     2.6845907E+01     5.6810285E-02     1.1681560E+02     1.5326348E-05    -1.4293107E+02   
                   3.4104811E-02    -6.1453650E+01     1.7316544E-05     3.2114651E+01     2.4674590E-02     1.1943899E+02     1.2875612E+00    -1.4725233E+01   
                   1.3234303E-05    -1.5665905E+02     8.9713596E-02    -5.5050521E+01     1.5218662E-05     2.5714545E+01     6.0455718E-02     1.2322307E+02   
                   1.2220231E-05    -1.6103311E+02     4.4791115E-02    -5.7448461E+01   
                   1.1472470E-05     2.4567658E+01     6.8156239E-03     1.3027093E+01     2.5876397E-06    -9.3391035E+01     6.6859603E-03    -1.7289728E+02   
                   7.9394373E-07     8.1592924E+01     5.4922777E-03     5.6884687E+00     2.1026387E-06     1.1003759E+02     1.2053833E-05     7.0794128E+01   
                   7.0696529E-01     1.7982440E+02     9.6459120E-06    -8.7222354E+01     5.3509641E-02    -1.7848877E+02     9.5076376E-06     9.0023032E+01   
                   2.7472741E-02     2.1842764E+00     1.1680384E-05    -8.7035700E+01   
                   5.6814278E-02     1.1681588E+02     1.8359980E-06    -1.0666895E+02     1.3755609E-02    -1.3031816E+01     5.2464571E-06     7.0085526E+01   
                   9.9831400E-03     1.6942473E+02     4.6429217E-06    -9.3879222E+01     8.4378966E-03    -8.9628117E+00     7.8754978E-02     1.6527466E+02   
                   6.9983889E-06     1.0183254E+02     5.9055018E-01     4.3631999E-01     6.8767749E-06    -8.8589828E+01     6.3504561E-02    -2.7920221E+00   
                   4.4497061E-06     8.4563789E+01     3.2338089E-02     1.7590557E+02   
                   1.5902737E-05    -1.5029795E+02     6.6825012E-03    -1.7290066E+02     3.1798862E-06     7.5582885E+01     6.4179852E-03     3.9738702E+00   
                   1.9255638E-06    -8.0485683E+01     5.5656777E-03    -1.7699287E+02     1.3152330E-06    -9.1036490E+01     2.1618174E-05    -1.0403339E+02   
                   4.0301427E-02    -1.6585500E+00     9.7780279E-06     1.0173597E+02     4.9189852E-01     1.7991166E+02     1.3430164E-05    -8.7844760E+01   
                   6.5475476E-02    -1.7950681E+02     1.4340515E-05     9.4467838E+01   
                   3.4118207E-02    -6.1451929E+01     1.8789633E-06    -2.1154390E+01     9.9829917E-03     1.6942040E+02     2.6600570E-06    -9.4092884E+01   
                   8.1173937E-03    -7.6625614E+00     3.2854343E-06     7.8392217E+01     7.7798519E-03     1.7426569E+02     4.6547547E-02    -1.4724831E+01   
                   2.2090306E-06    -1.2194672E+01     4.1982429E-02    -1.7636802E+02     5.6347459E-06     1.2182733E+02     4.1435852E-01     2.5277251E-01   
                   5.6766564E-06    -1.2170221E+02     6.7703195E-02    -1.1551722E+00   
                   2.3194456E-05     3.1239389E+01     5.4883712E-03     5.7157973E+00     4.7513903E-06    -1.0373234E+02     5.5629955E-03    -1.7695683E+02   
                   2.5314387E-06     8.8753462E+01     5.0946491E-03     2.1864352E+00     2.1797254E-06     6.2901260E+01     2.6987212E-05     7.4655571E+01   
                   1.9913976E-02     1.7778071E+02     1.0900430E-05    -7.5138994E+01     4.5195868E-02    -6.3334260E-01     1.4243134E-05     9.4255459E+01   
                   3.4646205E-01     1.7993853E+02     1.4873641E-05    -8.5983188E+01   
                   2.4676544E-02     1.1943876E+02     2.9138199E-06     5.8749662E+01     8.4380256E-03    -8.9645517E+00     5.5448158E-06    -1.0837826E+02   
                   7.7798894E-03     1.7426804E+02     4.2005048E-06     8.9041287E+01     9.4969925E-03    -3.3664318E+00     3.3383417E-02     1.6527441E+02   
                   1.9593478E-06     8.1901237E+01     2.0959436E-02     5.2210580E+00     2.6881013E-06     1.2012727E+02     4.3905919E-02    -1.7828912E+02   
                   1.2315883E-06    -6.3834626E+01     2.9154610E-01     1.9238292E-01   
                   1.2875614E+00    -1.4725195E+01     2.2243705E-05     6.7985476E+01     7.8755132E-02     1.6527437E+02     2.0904960E-05    -9.9150555E+01   
                   4.6535161E-02    -1.4725797E+01     2.3653649E-05     7.7736033E+01     3.3378863E-02     1.6527469E+02     9.9999552E-01     6.0549799E+01   
                   1.6655672E-05    -1.1478172E+02     1.1422152E-01    -1.4725150E+01     2.1452585E-05     7.4189444E+01     7.8558452E-02     1.6527538E+02   
                   1.8499628E-05    -1.1143726E+02     5.8646166E-02    -1.4723839E+01   
                   1.5704504E-05    -1.5045508E+02     7.0696947E-01     1.7982417E+02     5.2130788E-06     7.1636198E+01     4.0303829E-02    -1.6585210E+00   
                   3.1691502E-06    -1.1571940E+02     1.9914229E-02     1.7777957E+02     1.8123480E-06     8.9469728E+00     1.9633420E-05    -1.1038843E+02   
                   2.0884016E-02     1.7157621E+02     1.1044380E-05     9.0925157E+01     2.0494200E-02    -5.5651071E+00     1.3010715E-05    -8.6389884E+01   
                   1.7636416E-02     1.7520466E+02     1.4964964E-05     9.2537399E+01   
                   8.9709270E-02    -5.5049128E+01     7.1483584E-06    -7.8956256E+01     5.9055198E-01     4.3634086E-01     1.0110044E-05     9.9746533E+01   
                   4.1979396E-02    -1.7637056E+02     1.0155462E-05    -8.0929087E+01     2.0956997E-02     5.2189379E+00     1.1421439E-01    -1.4724532E+01   
                   1.1327622E-05     9.0206635E+01     2.3376783E-02    -1.6379682E+02     1.2351108E-05    -8.5065661E+01     1.9529973E-02     1.3283138E+01   
                   1.2734111E-05     9.5761271E+01     1.5992672E-02    -1.6790814E+02   
                   1.4823799E-05     2.5945797E+01     5.3511542E-02    -1.7848943E+02     4.4654236E-06    -1.0608081E+02     4.9190035E-01     1.7991173E+02   
                   3.0284576E-06     6.6671924E+01     4.5195138E-02    -6.3540764E-01     8.6641504E-07     1.5523504E+02     1.8774660E-05     7.7256199E+01   
                   2.0493992E-02    -5.5643296E+00     1.2369504E-05    -8.2685355E+01     2.0795530E-02     1.7644052E+02     1.6934281E-05     8.8493814E+01   
                   1.8525189E-02    -2.9636159E+00     1.7878088E-05    -8.8082715E+01   
                   6.0453825E-02     1.2322232E+02     1.1147690E-05     9.6584983E+01     6.3503067E-02    -2.7919626E+00     1.2045500E-05    -8.9271348E+01   
                   4.1435743E-01     2.5266569E-01     1.1613839E-05     9.5323621E+01     4.3903248E-02    -1.7828880E+02     7.8555738E-02     1.6527572E+02   
                   1.4929352E-05    -8.5591292E+01     1.9531130E-02     1.3282873E+01     1.4610623E-05     9.5999331E+01     1.7330241E-02    -1.6974063E+02   
                   1.6730129E-05    -8.6143722E+01     1.4620488E-02     9.0693702E+00   
                   1.8908440E-05    -1.5181340E+02     2.7472022E-02     2.1855019E+00     4.8965066E-06     8.1237500E+01     6.5473914E-02    -1.7950885E+02   
                   3.0035811E-06    -9.5739403E+01     3.4646337E-01     1.7993859E+02     1.6269302E-06    -6.6583390E+01     2.2839104E-05    -1.0304661E+02   
                   1.7632005E-02     1.7520811E+02     1.3016066E-05     9.6210879E+01     1.8525560E-02    -2.9661521E+00     1.7057326E-05    -8.6954238E+01   
                   1.7012521E-02     1.7760848E+02     1.8556356E-05     9.2058392E+01   
                   4.4788940E-02    -5.7448732E+01     1.1843791E-05    -8.3733465E+01     3.2339413E-02     1.7590588E+02     1.4451630E-05     9.4187119E+01   
                   6.7702259E-02    -1.1546919E+00     1.5282968E-05    -8.5890799E+01     2.9154503E-01     1.9239461E-01     5.8641208E-02    -1.4724105E+01   
                   1.4774686E-05     8.5511269E+01     1.5993389E-02    -1.6791017E+02     1.8669644E-05    -8.8670613E+01     1.4621664E-02     9.0687218E+00   
                   1.8486357E-05     9.2242235E+01     1.1959788E-02    -1.7172872E+02   
  5.0000000E+09     7.2143734E-02     1.7031490E+02     4.3814450E-06     3.5060181E+01     3.0865875E-02     1.2264271E+02     9.2524537E-06    -1.3487882E+02   
                   1.8471431E-02    -5.3712613E+01     9.7841739E-06     4.6156835E+01     1.3345483E-02     1.2813837E+02     9.9739485E-01    -5.1196130E+00   
                   6.1735760E-06    -1.5004003E+02     4.8466818E-02    -4.0394516E+01     1.1541318E-05     3.1417155E+01     3.2631555E-02     1.3596630E+02   
                   1.0716413E-05    -1.3195097E+02     2.4173440E-02    -4.5424385E+01   
                   6.2228507E-06     5.2399372E+01     6.1669415E-03     6.7711257E+00     3.7109658E-06    -6.7168031E+01     6.6543940E-03    -1.7670161E+02   
                   9.7977255E-08    -1.7818842E+02     5.5338551E-03     2.6078496E+00     1.5908223E-06     6.5376049E+01     9.4616408E-06     4.9020647E+01   
                   7.1478070E-01     1.7991889E+02     8.5428475E-06    -9.4542413E+01     5.4525895E-02    -1.7931923E+02     1.2170004E-05     9.7390300E+01   
                   2.8020580E-02     9.8598621E-01     1.3009714E-05    -8.9023651E+01   
                   3.0867418E-02     1.2264468E+02     4.9264298E-06    -1.0728703E+02     1.2392975E-02    -4.7365821E+00     2.9312833E-06     7.2225451E+01   
                   9.1374361E-03     1.7616534E+02     4.7669154E-06    -1.0077357E+02     7.8261210E-03    -3.2338686E+00     3.3109272E-02     1.4123320E+02   
                   6.2107534E-06     9.5613334E+01     5.9809779E-01     1.4824705E-01     3.4928482E-06    -1.0019918E+02     6.2200225E-02    -9.7652924E-01   
                   5.6446330E-06     8.5746834E+01     3.1263276E-02     1.7855442E+02   
                   1.3422929E-05    -1.3583654E+02     6.6571263E-03    -1.7670645E+02     2.7287075E-06     7.7318643E+01     6.5270051E-03     1.7826982E+00   
                   2.2465980E-06    -1.0717403E+02     5.6593969E-03    -1.7864227E+02     2.4277672E-06    -9.9592754E+01     1.3425576E-05    -1.6920365E+02   
                   3.9925737E-02    -7.6852548E-01     1.1812472E-05     9.3355604E+01     4.9454147E-01     1.7996044E+02     1.3190618E-05    -8.7996725E+01   
                   6.6067956E-02    -1.7978203E+02     1.6963159E-05     9.3916468E+01   
                   1.8471255E-02    -5.3712469E+01     3.5525986E-06     1.4227411E+02     9.1376192E-03     1.7614152E+02     3.4930725E-06    -6.7297933E+01   
                   7.5993175E-03    -2.7756470E+00     2.7083458E-06     6.4403624E+01     7.4128974E-03     1.7794865E+02     1.9844623E-02    -4.1930299E+01   
                   2.7913357E-06     1.1022138E+02     4.3851570E-02    -1.7876977E+02     3.4568558E-06     1.0953740E+02     4.1747601E-01     8.7969790E-02   
                   5.1938906E-06    -1.4884036E+02     6.7216495E-02    -4.0531562E-01   
                   8.8470778E-06     4.7704385E+01     5.5312567E-03     2.6137919E+00     8.2924110E-06    -8.7582079E+01     5.6623003E-03    -1.7867279E+02   
                   1.1674517E-06     7.2274690E+01     5.1738894E-03     9.5866587E-01     2.5076395E-06     9.1117240E+01     1.2758710E-05     9.0126103E+01   
                   1.9533636E-02     1.7896774E+02     1.5460002E-05    -8.5236951E+01     4.5144130E-02    -2.8419787E-01     1.4938463E-05     8.7979801E+01   
                   3.4770647E-01     1.7997203E+02     1.7150954E-05    -9.0663972E+01   
                   1.3348256E-02     1.2816539E+02     3.7674759E-06     1.2805939E+02     7.8250865E-03    -3.2348262E+00     1.9887441E-06    -4.8121688E+01   
