! S-parameter export from POSTFEKO
! Filename: circular_2wg_1mode
! Creation date: 2019-12-29 17:08:22
! 
# Hz S MA R    5.0000000E+01 
  4.0000000E+09     1.3221102E-01     1.0221966E-03     9.0656231E-01     1.4506165E-04     9.0656238E-01    -4.6318511E-06     1.4548908E-01     1.7999978E+02   
  4.5000000E+09     9.5809964E-01    -1.1892135E+02     1.2950780E+00    -1.5236308E+01     1.2950782E+00    -1.5236213E+01     9.9999935E-01     5.9527568E+01   
  5.0000000E+09     7.1486716E-02     1.7242742E+02     9.9743902E-01    -5.3046002E+00     9.9744460E-01    -5.3048604E+00     7.1487646E-02    -3.0387833E+00   
  5.5000000E+09     2.4755525E-02     1.6832563E+02     9.9969019E-01    -7.7025593E+00     9.9968853E-01    -7.7029701E+00     2.4750287E-02    -3.7129865E+00   
  6.0000000E+09     8.4033120E-03     1.6380136E+02     9.9996280E-01    -9.6672380E+00     9.9996319E-01    -9.6671242E+00     8.4005817E-03    -3.1437992E+00   
  6.5000000E+09     3.5276696E-04     9.0963575E+01     9.9999955E-01    -1.1427874E+01     1.0000019E+00    -1.1428085E+01     3.5392880E-04     6.6345693E+01   
  7.0000000E+09     4.1151776E-03    -1.7705670E+01     9.9999193E-01    -1.3038431E+01     9.9998926E-01    -1.3038464E+01     4.1159653E-03     1.7162728E+02   
  7.5000000E+09     7.7923070E-03    -2.1350671E+01     9.9996763E-01    -1.4588666E+01     9.9996849E-01    -1.4588539E+01     7.8057040E-03     1.7213937E+02   
  8.0000000E+09     1.0207275E-02    -2.5894733E+01     9.9994651E-01    -1.6106422E+01     9.9994919E-01    -1.6106267E+01     1.0217074E-02     1.7369513E+02   
  8.5000000E+09     1.2127730E-02    -3.1326276E+01     9.9992641E-01    -1.7601239E+01     9.9992203E-01    -1.7601550E+01     1.2128491E-02     1.7611693E+02   
  9.0000000E+09     1.4678191E-02    -4.6354975E+01     9.9989065E-01    -1.9218872E+01     9.9988426E-01    -1.9218661E+01     1.4682598E-02    -1.7209001E+02   
  9.5000000E+09     8.3651986E-03    -2.3005502E+01     9.9416102E-01    -2.0236160E+01     9.9416262E-01    -2.0236069E+01     1.9837434E-02     1.6130023E+02   
  1.0000000E+10     1.1988560E-02    -2.5879485E+01     9.9686552E-01    -2.1616888E+01     9.9685743E-01    -2.1616586E+01     1.8021198E-02     1.6145616E+02   
  1.0500000E+10     1.3346758E-02    -2.8140494E+01     9.9748200E-01    -2.2974225E+01     9.9747834E-01    -2.2974441E+01     1.8122844E-02     1.6106897E+02   
  1.1000000E+10     1.4126679E-02    -3.1019369E+01     9.9779147E-01    -2.4321113E+01     9.9778733E-01    -2.4321259E+01     1.8263118E-02     1.6106783E+02   
  1.1500000E+10     1.4975519E-02    -3.3407578E+01     9.9796790E-01    -2.5657636E+01     9.9799462E-01    -2.5656884E+01     1.8731122E-02     1.6078164E+02   
  1.2000000E+10     1.5653200E-02    -3.5346524E+01     9.9809356E-01    -2.6986905E+01     9.9810799E-01    -2.6986608E+01     1.9124012E-02     1.6011217E+02   
  1.2500000E+10     1.6495809E-02    -3.6334687E+01     9.9818747E-01    -2.8332029E+01     9.9819169E-01    -2.8331972E+01     1.9775036E-02     1.5873727E+02   
  1.3000000E+10     1.7383194E-02    -4.2064994E+01     9.9680030E-01    -2.9613472E+01     9.9680243E-01    -2.9613607E+01     1.8260313E-02     1.5599145E+02   
  1.3500000E+10     1.7257808E-02    -4.5260008E+01     9.9729316E-01    -3.0867224E+01     9.9729610E-01    -3.0866988E+01     1.8929568E-02     1.6083695E+02   
  1.4000000E+10     1.7463435E-02    -4.7531128E+01     9.9747738E-01    -3.2159638E+01     9.9747703E-01    -3.2159719E+01     1.9552405E-02     1.6063169E+02   
  1.4500000E+10     1.7698994E-02    -5.0014681E+01     9.9755154E-01    -3.3449506E+01     9.9755538E-01    -3.3449981E+01     1.9989796E-02     1.6048046E+02   
  1.5000000E+10     1.7982407E-02    -5.3354739E+01     9.9758474E-01    -3.4748452E+01     9.9757854E-01    -3.4748699E+01     2.0361527E-02     1.6101958E+02   
  1.5500000E+10     1.8362790E-02    -5.6796339E+01     9.9759024E-01    -3.6048623E+01     9.9760689E-01    -3.6048961E+01     2.0850890E-02     1.6164376E+02   
  1.6000000E+10     1.8834951E-02    -6.0907113E+01     9.9756754E-01    -3.7362206E+01     9.9756537E-01    -3.7361194E+01     2.1411926E-02     1.6292604E+02   
  1.6500000E+10     2.0406020E-02    -7.1397324E+01     9.9735461E-01    -3.8813706E+01     9.9735470E-01    -3.8813528E+01     2.3202956E-02     1.6949816E+02   
  1.7000000E+10     1.4039878E-02    -7.5950037E+01     9.9147793E-01    -3.9903753E+01     9.9147893E-01    -3.9903224E+01     2.7726689E-02     1.5743442E+02   
  1.7500000E+10     1.3821349E-02    -5.9324009E+01     9.9313735E-01    -4.0921435E+01     9.9314629E-01    -4.0920814E+01     2.5363697E-02     1.4876353E+02   
  1.8000000E+10     1.5313715E-02    -6.0401426E+01     9.9446817E-01    -4.2187927E+01     9.9446978E-01    -4.2187810E+01     2.4271545E-02     1.4896659E+02   
  1.8500000E+10     1.5992089E-02    -6.1997610E+01     9.9499298E-01    -4.3446367E+01     9.9498569E-01    -4.3446416E+01     2.3946946E-02     1.4863791E+02   
  1.9000000E+10     1.6508176E-02    -6.4457226E+01     9.9529055E-01    -4.4713296E+01     9.9529023E-01    -4.4712809E+01     2.3861172E-02     1.4862579E+02   
  1.9500000E+10     1.6881373E-02    -6.6236486E+01     9.9548200E-01    -4.5969771E+01     9.9548475E-01    -4.5970053E+01     2.3876116E-02     1.4809996E+02   
  2.0000000E+10     1.7303228E-02    -6.8259344E+01     9.9560377E-01    -4.7234099E+01     9.9560433E-01    -4.7233494E+01     2.4075148E-02     1.4759132E+02   
  2.0500000E+10     1.7753904E-02    -7.1066418E+01     9.9530714E-01    -4.8486374E+01     9.9530785E-01    -4.8486305E+01     2.3833838E-02     1.4619934E+02   
  2.1000000E+10     1.7966007E-02    -7.3707103E+01     9.9522402E-01    -4.9723590E+01     9.9523558E-01    -4.9723753E+01     2.3374247E-02     1.4639746E+02   
