! S-parameter export from POSTFEKO
! Filename: circular_2wg_3modes_ratio_2
! Creation date: 2020-02-21 09:26:20
! 
# Hz S MA R    5.0000000E+01 
  2.0000000E+09     6.1421867E-01     1.7999996E+02     5.9168845E-07    -1.0109969E+02     6.6534302E-07     1.6252966E+02     5.6474029E-02    -1.5619622E-05   
                  2.0907447E-07     9.8068481E-01     3.5921328E-08     8.8617195E+01   
                  4.3621722E-07     5.8676895E+01     8.9826787E-02     1.7999976E+02     6.0796081E-07    -3.6208930E+01     2.0494304E-07    -1.7016173E+02   
                  6.3458763E-03     1.7999989E+02     4.2512195E-09     6.9865461E+01   
                  5.7807448E-07     1.0622708E+01     7.6519992E-07     1.0053292E+02     3.7864600E-02     1.7999956E+02     2.7440986E-07     7.9689687E+01   
                  9.6068357E-08    -8.7336458E+01     2.5386347E-03    -1.7999976E+02   
                  5.6473841E-02     1.3011762E-04     1.8934933E-07    -1.5226263E+02     3.1605660E-07     1.1232860E+02     1.6699693E-02    -2.4070714E-03   
                  2.7774586E-06     1.7051790E+02     3.0218078E-06    -1.0471317E+02   
                  2.4767045E-07     2.6642562E+00     6.3458934E-03     1.7999991E+02     8.4114048E-08    -1.0407908E+02     1.4731705E-06     1.6978080E+02   
                  2.9098208E-04    -6.2706426E-02     6.3207034E-07     1.6443872E+02   
                  7.3781600E-08    -9.3018339E+01     2.0503245E-08     1.5561024E+02     2.5386007E-03     1.7999927E+02     1.7719200E-06    -9.3330544E+01   
                  1.5365577E-06    -7.7869898E+01     1.9716157E-04    -1.7939312E+02   
  2.5000000E+09     1.0000009E+00     9.7634168E+01     2.6977500E-07     4.7154737E+01     1.6586112E-06     1.7185259E+02     1.4939445E-01     3.8170048E+00   
                  6.7789324E-07     5.1438424E+00     1.6456304E-07    -8.6824460E+01   
                  2.5115035E-06     1.4461131E+02     1.3154312E-01    -1.7999947E+02     1.1945383E-06     1.0911330E+02     7.8668624E-09    -1.7196589E+02   
                  7.7420334E-03    -1.7999994E+02     1.7879749E-08     6.1051660E+01   
                  2.2539214E-06    -7.4029097E+01     1.5572155E-06     4.3363088E+01     5.2659401E-02     1.7879513E+02     7.8929893E-07     9.7780709E+01   
                  1.8644378E-07    -9.8431439E+01     3.2639820E-03     1.7948174E+02   
                  1.4939452E-01     3.8171828E+00     3.4095772E-07     1.5884043E+02     6.0920856E-07     9.6736748E+01     2.8138915E-02    -2.3361688E+01   
                  1.3071641E-06    -1.1214923E+02     1.5264644E-06     3.7827374E+01   
                  6.9198057E-07     2.8012192E+00     7.7420376E-03     1.7999983E+02     2.5343845E-07    -9.9974967E+01     7.2626604E-07     1.7774030E+02   
                  4.8393515E-04     1.0810381E-01     1.9938496E-06    -9.8148030E+01   
                  3.3502593E-07    -8.6182267E+01     2.8453752E-08     8.1685796E+01     3.2638575E-03     1.7948285E+02     2.7100696E-06    -9.2273902E+01   
                  1.3158492E-06    -9.8845061E+01     2.0018136E-04     1.7983057E+02   
  3.0000000E+09     1.0000001E+00     4.9018226E+01     1.3214848E-06    -1.1733727E+02     1.9467518E-06    -7.5196248E+01     2.4691414E-01    -2.0490803E+01   
                  1.1497318E-06    -2.2042122E+01     5.4389708E-07    -1.1304495E+02   
                  2.4678767E-06    -1.2059335E+02     2.4029213E-01     1.7999950E+02     1.1482945E-06     6.8894779E+01     4.4707895E-07    -1.4387396E+02   
                  9.8994246E-03    -1.7999998E+02     6.5252603E-08     1.1572158E+02   
                  8.8420290E-07     1.5301545E+02     9.4488123E-07     1.2366192E+02     8.4278248E-02     1.7630263E+02     1.0988042E-06     9.1201521E+01   
                  4.0106233E-07    -1.0506583E+02     4.6559021E-03     1.7827303E+02   
                  2.4691409E-01    -2.0490892E+01     7.9950870E-07    -1.6488487E+02     1.2231344E-06     8.8632962E+01     4.9096121E-02    -3.8381366E+01   
                  1.0753737E-06    -1.7763787E+02     1.6628329E-06    -2.3448035E+01   
                  1.0453578E-06    -2.3413427E+01     9.8993453E-03    -1.7999937E+02     3.3260426E-07    -1.2983902E+02     1.4986669E-06    -1.3462760E+02   
                  8.2356174E-04     1.0854870E-02     4.6194609E-07    -1.3382758E+02   
                  5.4638193E-07    -1.1220966E+02     7.7146245E-08     2.1615862E+01     4.6559137E-03     1.7827490E+02     3.0712930E-06    -9.9242051E+01   
                  1.6450214E-06    -8.2746408E+01     2.0131820E-04     1.7914336E+02   
  3.5000000E+09     9.9999910E-01    -2.7566499E+00     1.0341658E-06    -8.6090947E+01     6.9175723E-07     2.9187205E+01     4.3894422E-01    -4.6378250E+01   
                  1.7222637E-06    -4.6850334E+01     1.2517941E-06    -1.3194005E+02   
                  2.0472852E-06     1.0565238E+02     9.9999972E-01     1.4168371E+02     2.9644504E-06     1.0182542E+02     1.9727787E-06    -1.5227957E+02   
                  1.6072645E-02    -1.5415811E+02     9.4522843E-08     1.9473113E+01   
                  1.8728167E-06     7.7851206E+00     2.4359449E-06     1.0044538E+02     1.7599036E-01     1.6890989E+02     4.6012099E-06     6.4302775E+01   
                  1.1404839E-06    -1.1489172E+02     8.0423606E-03     1.7402208E+02   
                  4.3894369E-01    -4.6378399E+01     1.2321867E-06    -1.4614761E+02     5.1092495E-06     6.5104181E+01     1.1474485E-01    -5.7093566E+01   
                  1.4624847E-06    -1.0013646E+02     4.2195518E-06    -1.0358347E+02   
                  1.7750664E-06    -5.2458818E+01     1.6072671E-02    -1.5415823E+02     1.0302696E-06    -1.1567584E+02     1.1230341E-06     1.1925861E+01   
                  1.5458255E-03    -4.8041512E+00     2.7551087E-06    -5.4551967E+01   
                  1.3860622E-06    -1.2341922E+02     1.6067850E-07     1.3227286E+02     8.0423449E-03     1.7402250E+02     2.0588996E-06    -1.3166742E+02   
                  2.3218901E-06    -1.0338079E+02     2.4087027E-04     1.7562777E+02   
  4.0000000E+09     9.9999980E-01    -1.4290558E+02     7.5547516E-06     5.3781557E+01     5.9826037E-05    -1.0473692E+02     1.0946333E+00    -1.1645280E+02   
                  5.4730120E-06    -1.1632243E+02     7.2853808E-06     1.6702105E+02   
                  7.8638371E-06     6.2354230E+01     1.0000007E+00     7.5189984E+01     1.4563680E-05     1.5635917E+01     3.9392917E-06     1.1758037E+02   
                  3.2185750E-02     1.7259489E+02     1.9774689E-07     5.1499897E+01   
                  6.0016542E-05    -1.0580028E+02     1.3545750E-05     2.2551524E+01     7.4754750E-01     1.1421956E+02     4.3075236E-05    -3.9717251E+01   
                  7.2958317E-06    -1.6722062E+02     2.1980128E-02     1.3212721E+02   
                  1.0946361E+00    -1.1645280E+02     4.6034617E-06     9.6956232E+01     4.1361775E-05    -4.2627004E+01     6.8018489E-01    -1.1826010E+02   
                  2.9199156E-06    -1.0446257E+02     6.0598724E-06    -1.3285481E+02   
                  4.8345674E-06    -1.1752395E+02     3.2186108E-02     1.7259525E+02     6.4145879E-06    -1.7257351E+02     3.7589780E-06    -1.1870676E+02   
                  2.5413766E-03    -1.1780588E+01     4.0129148E-06    -8.7493287E+01   
                  7.7751749E-06     1.6646500E+02     1.3007673E-06     9.1320026E+01     2.1983197E-02     1.3212321E+02     4.3340373E-06    -1.2766880E+02   
                  2.2931288E-06    -7.9161760E+01     5.1914081E-04     1.3118890E+02   
  4.5000000E+09     5.3995509E-01    -1.5253434E+01     2.8588722E-06    -2.1382543E+01     1.5645714E-05     1.1588817E+02     4.9212986E-01    -1.3618411E+02   
                  1.7426852E-06    -1.3913103E+02     2.5913194E-06     7.8050513E+01   
                  2.5829732E-06    -2.4988057E+01     1.0000014E+00     3.1622668E+01     7.6976071E-06    -5.4041243E+01     2.6406457E-06     7.3472293E+01   
                  4.9022337E-02     1.5081182E+02     6.1299425E-07    -1.0705422E+02   
                  1.4750262E-05     1.1454614E+02     6.8546139E-06    -5.6510799E+01     6.7878585E-02     4.4633018E+01     2.0249862E-05    -1.1449937E+02   
                  5.5128830E-06     8.6354501E+01     1.6124942E-02     1.0137514E+02   
                  4.9213146E-01    -1.3618377E+02     3.4712879E-06     8.3999108E+01     2.1360258E-05    -1.0035594E+02     4.7819556E-01     8.7728274E+01   
                  1.9143710E-06    -1.3930797E+02     5.8719362E-06    -1.2229773E+02   
                  5.0077788E-06     1.7431048E+02     4.9020823E-02     1.5081128E+02     7.9359876E-06     1.1056716E+02     1.7710348E-06    -1.1252262E+02   
                  4.6062742E-03    -1.5112315E+01     3.5151539E-06    -9.8713885E+01   
                  3.3687189E-06     8.9876777E+01     1.3949182E-06    -1.2390745E+02     1.6125550E-02     1.0137871E+02     4.5611886E-06    -1.1348225E+02   
                  3.1852825E-06    -9.2325808E+01     2.7375095E-04     6.8164327E+01   
  5.0000000E+09     4.9452343E-01    -4.5492956E+01     2.8225880E-06    -5.3742498E+01     1.2850908E-05     4.4429161E+01     6.4125038E-01    -1.7152392E+02   
                  2.7117650E-06    -1.4968422E+02     3.0623571E-06     5.3722498E+01   
                  1.3957180E-06    -1.8314073E+01     1.0000002E+00    -7.0089417E+00     8.5427289E-06    -1.0388839E+02     3.8998640E-06     3.9689566E+01   
                  7.7725059E-02     1.3149539E+02     2.5853365E-07    -4.6825515E+01   
                  1.2096604E-05     5.3159052E+01     6.8394756E-06    -1.1565531E+02     3.4171069E-01     5.6795536E+01     1.5731502E-05     1.7038469E+02   
                  3.9403698E-06     3.6461815E+01     1.7487442E-02     7.5513833E+01   
                  6.4125161E-01    -1.7152391E+02     7.8462216E-06     8.8924859E+01     1.5698730E-05     1.4868555E+02     2.2315707E-01     1.7738330E+01   
                  2.7776436E-06    -1.0762269E+02     4.7590556E-06    -1.2644801E+02   
                  1.2051491E-06    -1.5454149E+02     7.7724948E-02     1.3149518E+02     5.2487025E-06     4.5827105E+01     4.5150425E-06    -1.1672079E+02   
                  1.0077370E-02    -1.7447403E+01     4.3518176E-06    -9.3620501E+01   
                  2.1147631E-06     4.7144691E+01     1.5058423E-06     7.5879724E+01     1.7486033E-02     7.5507327E+01     4.4194246E-06    -1.3081026E+02   
                  3.4460891E-06    -8.8962221E+01     3.1159272E-04     4.7005238E+01   
  5.5000000E+09     4.8917606E-01    -6.9812832E+01     5.2004355E-06    -7.4878134E+01     1.0294708E-05    -1.0420552E+01     6.9240772E-01     1.5393927E+02   
                  4.2302051E-06    -1.7858180E+02     3.4411464E-06     2.2014364E+01   
                  4.3302655E-06    -7.4086788E+01     9.9999856E-01    -5.0888147E+01     1.1736294E-05    -1.5454958E+02     7.5876748E-06     8.8318626E+00   
                  1.7535653E-01     1.0955571E+02     9.4414752E-07     1.1098118E+01   
                  9.0700378E-06    -8.3096886E+00     1.2647857E-05    -1.5938339E+02     4.5772159E-01     1.8228207E+01     1.0904882E-05     1.1340588E+02   
                  3.9207944E-06     2.8192272E+01     1.8827411E-02     5.5069127E+01   
                  6.9241004E-01     1.5393899E+02     7.0165980E-06     6.0828001E+00     5.8200135E-06     1.2937060E+02     1.0655543E-01    -4.4828263E+01   
                  6.8356289E-06    -1.1197071E+02     4.6987523E-06    -1.4260212E+02   
                  5.8792721E-06    -1.7915024E+02     1.7535590E-01     1.0955552E+02     6.3035983E-06     8.2912812E+01     8.0805417E-06    -1.1871958E+02   
                  4.2709146E-02    -2.1098215E+01     5.9384136E-06    -9.2474997E+01   
                  1.7960696E-06     3.6432324E+01     7.2656881E-07     1.7626222E+02     1.8830059E-02     5.5052666E+01     2.2615626E-06    -1.3245326E+02   
                  6.0969326E-06    -9.2850580E+01     4.5827435E-04     3.2042171E+01   
  6.0000000E+09     5.0082569E-01    -9.1170866E+01     3.0956103E-06    -1.6065135E+02     9.4519513E-06    -5.2121704E+01     7.0445841E-01     1.1937685E+02   
                  3.7969607E-06     1.3161310E+02     3.6701877E-06    -1.5356060E+01   
                  3.1994655E-06    -1.5629428E+02     8.5926483E-01    -6.7343348E+01     4.4953216E-06     1.2582140E+02     4.0129603E-06    -6.4979649E+01   
                  1.0966730E-01     6.1954962E+01     5.5162013E-07    -5.0498814E+01   
                  6.9911969E-06    -6.3596686E+01     3.8036848E-06     1.2985091E+02     5.3296138E-01    -1.5116478E+01     7.4815313E-06     6.3502123E+01   
                  3.0140529E-06    -5.6257922E+01     2.0878253E-02     3.7392716E+01   
                  7.0446806E-01     1.1937660E+02     5.0864130E-06    -1.2812263E+02     7.3190556E-06     9.9635640E+01     1.0770300E-02    -8.9479659E+01   
                  4.0530480E-06    -1.2896158E+02     4.0457819E-06    -1.3283141E+02   
                  1.8346255E-06     1.2256267E+02     1.0966417E-01     6.1957084E+01     1.0459606E-05    -7.6090275E+01     6.2900369E-06    -7.3776888E+01   
                  4.5316070E-02    -1.2241818E+02     6.5118185E-06    -9.7941043E+01   
                  1.5187658E-06     2.0081406E+01     3.9608844E-06    -1.1807886E+02     2.0877594E-02     3.7405645E+01     7.5806221E-06    -1.2042477E+02   
                  5.0994968E-06    -7.1405947E+01     7.1721026E-04     2.3379597E+01   
  6.5000000E+09     5.2806601E-01    -1.1681084E+02     3.9769491E-06    -1.7166076E+02     4.5037708E-06    -9.8924427E+01     6.8373384E-01     9.0427281E+01   
                  4.8061610E-06     1.0024541E+02     3.3196636E-06    -5.4044188E+01   
                  4.5705906E-06     1.7571312E+02     8.1217832E-01    -1.0242274E+02     7.2951849E-06     1.0069303E+02     4.6985554E-06    -9.0906290E+01   
                  2.0112829E-01     4.8933693E+01     1.1321740E-06    -4.8320566E+01   
                  4.5701205E-06    -1.0177235E+02     5.4742084E-06     9.0840701E+01     5.9453927E-01    -4.9960758E+01     4.3667833E-06     3.7522030E+01   
                  2.2039398E-06    -5.1996922E+01     2.3828599E-02     1.9509570E+01   
                  6.8372959E-01     9.0426572E+01     1.6263580E-05    -9.0593021E+01     8.6902657E-06     4.0911447E+01     8.9798060E-03    -7.9879733E+01   
                  7.1754116E-06    -1.0771542E+02     3.9305743E-06    -1.4359952E+02   
                  1.9159054E-07     1.4133646E+02     2.0112830E-01     4.8933373E+01     1.9512675E-06    -7.3612579E+01     7.6827935E-06    -1.5393824E+02   
                  1.1556025E-01    -1.3236932E+02     8.0829188E-06    -1.0171943E+02   
                  2.8963664E-06    -9.2381616E+01     2.1044539E-06     5.6331863E+01     2.3827541E-02     1.9510216E+01     8.9495963E-06    -1.4401239E+02   
                  8.2696727E-06    -9.8840599E+01     1.1429672E-03     1.8160455E+01   
  7.0000000E+09     5.4009629E-01    -1.4208948E+02     4.2516130E-06     8.7906755E+01     3.3059629E-06    -1.1146782E+02     6.7869986E-01     6.2354198E+01   
                  8.2908748E-06     6.3045041E+01     3.9542067E-06    -6.8416315E+01   
                  4.2792020E-06     8.2736752E+01     6.5019973E-01    -1.2320232E+02     7.7617036E-06     6.3957639E+01     7.0489043E-06    -1.5082408E+02   
                  4.6302860E-01     1.3395091E+01     6.3347172E-06    -1.3085519E+02   
                  3.2581280E-06    -1.4675172E+02     6.9200199E-06     5.3531364E+01     6.2993199E-01    -8.2434702E+01     3.6409065E-06     2.6267872E+00   
                  4.2338636E-06    -4.9588211E+01     2.7535117E-02     1.9904388E+00   
                  6.7869948E-01     6.2354032E+01     1.5782828E-05    -9.9256287E+01     1.6731375E-05    -4.5757473E+01     4.0153116E-03     4.3102202E+01   
                  8.9761832E-06     1.7829044E+02     5.3936210E-06    -1.1621017E+02   
                  3.7744952E-06     7.8698109E+01     4.6302855E-01     1.3394329E+01     6.1263045E-06    -6.0921585E+00     1.1767897E-05    -1.7125375E+02   
                  4.8594092E-01     8.5387316E+01     1.5419872E-05    -1.0711904E+02   
                  2.9412079E-06     1.4057673E+01     6.6833781E-06     1.6643873E+02     2.7528213E-02     2.0076218E+00     5.6490788E-06    -1.3469026E+02   
                  1.5096327E-05    -1.3480210E+02     1.7238587E-03     1.5729418E+01   
  7.5000000E+09     5.4730318E-01    -1.6709040E+02     2.3505740E-06     1.6225690E+01     9.7341592E-07    -1.3838431E+02     6.7716283E-01     3.4805599E+01   
                  5.9005209E-06     2.0125076E+00     4.3996151E-06    -9.7949215E+01   
                  2.5976946E-06     9.0452272E+00     6.7499676E-01    -1.4272934E+02     8.2888957E-06     1.6078168E+01     5.5036988E-06     1.5949637E+02   
                  5.5261296E-01    -5.1183712E+01     6.8543967E-06     1.6367884E+02   
                  3.1576482E-06    -1.2079138E+02     7.3410058E-06     1.8390937E+01     6.5702066E-01    -1.1350475E+02     3.1066239E-06    -3.9371929E+01   
                  6.9723148E-06    -1.0481903E+02     3.1286436E-02    -1.7888817E+01   
                  6.7716257E-01     3.4805628E+01     3.1527898E-06    -1.4766794E+02     5.0462823E-06     5.4432379E+01     1.7932325E-02     2.2841453E+01   
                  3.8708355E-06     1.4081102E+02     6.2625340E-06    -1.2369619E+02   
                  6.1084195E-06     8.5378406E+00     5.5261093E-01    -5.1183293E+01     8.2054104E-06    -1.3511275E+02     1.0661701E-05     1.6378507E+02   
                  9.9309332E-02    -1.7963754E+01     1.1105375E-05    -1.2275460E+02   
                  3.8485844E-06    -7.7013818E+01     6.7889727E-06     1.6888764E+02     3.1286647E-02    -1.7889616E+01     6.2104287E-06    -1.2115629E+02   
                  1.1788391E-05    -1.3138895E+02     1.0611374E-03     3.5565837E+01   
  8.0000000E+09     5.6136617E-01     1.6868617E+02     1.3256885E-06    -1.7945421E+01     3.4626906E-06    -1.4742857E+02     6.6271220E-01     6.9444760E+00   
                  6.9610424E-06    -3.2886500E+01     4.7747042E-06    -1.1726947E+02   
                  9.1816378E-07    -2.6466647E+01     7.3021299E-01    -1.6833498E+02     6.7886648E-06    -1.1365854E+01     4.6535895E-06     1.1745294E+02   
                  5.1050425E-01    -9.2795091E+01     6.8679060E-06     1.1171458E+02   
                  2.2995751E-06    -1.4902335E+02     7.4380860E-06    -1.1704758E+01     6.6131394E-01    -1.4513608E+02     1.8564098E-06    -1.4170671E+02   
                  7.4079341E-06    -1.4297162E+02     3.6628552E-02     2.2923113E+01   
                  6.6271368E-01     6.9442561E+00     8.0287742E-06     1.5062194E+02     2.3944244E-06    -1.4032379E+02     3.0069897E-02    -5.5133609E+01   
                  4.1338369E-06     1.2462876E+02     7.3438628E-06    -1.2942995E+02   
                  4.8431998E-06    -3.4854895E+01     5.1050897E-01    -9.2794737E+01     9.2892141E-06    -1.3047228E+02     7.0981681E-06    -1.0563227E+02   
                  4.7513744E-02    -6.4601437E+01     1.6377822E-05    -1.2471226E+02   
                  6.2006762E-06    -1.2701584E+02     5.7430297E-06     1.3445593E+02     3.6631744E-02     2.2929185E+01     6.8518450E-06    -1.1745018E+02   
                  1.5876059E-05    -1.2509712E+02     6.1734821E-02     8.2223671E+01   
  8.5000000E+09     5.6732858E-01     1.4274019E+02     8.6327086E-07    -4.9382818E+01     2.4449892E-06    -1.3524551E+02     6.5996373E-01    -1.8277735E+01   
