! S-parameter export from POSTFEKO
! Filename: circular_10wg_5modes_V2
! Creation date: 2020-01-10 16:13:29
! 
# Hz S MA R    5.0000000E+01 
  4.0000000E+09     9.9999942E-01     1.6817455E+02     5.4905704E-01     3.9087092E+01     5.4905636E-01     3.9086824E+01     7.9407603E-01    -1.0942904E+01   
  4.5000000E+09     9.9999156E-01     3.2630961E+01     1.1015441E+00    -2.8684628E+01     1.1015465E+00    -2.8684555E+01     9.3120163E-01    -1.3934294E+02   
  5.0000000E+09     1.2740518E-01    -1.2250471E+01     9.9184977E-01    -1.2078432E+01     9.9184636E-01    -1.2078393E+01     1.2741002E-01     1.6809151E+02   
  5.5000000E+09     4.2357704E-02    -1.7511592E+01     9.9910262E-01    -1.6671080E+01     9.9910005E-01    -1.6671113E+01     4.2358517E-02     1.6416862E+02   
  6.0000000E+09     9.1972637E-03    -3.6130203E+01     9.9995570E-01    -2.0535145E+01     9.9995502E-01    -2.0535175E+01     9.2003315E-03     1.7505497E+02   
  6.5000000E+09     6.6235812E-03    -1.7445676E+02     9.9997850E-01    -2.3892203E+01     9.9997614E-01    -2.3892287E+01     6.6218875E-03    -5.3327589E+01   
  7.0000000E+09     1.7958133E-02     1.7414576E+02     9.9984085E-01    -2.7248280E+01     9.9983446E-01    -2.7248352E+01     1.7956728E-02    -4.8636673E+01   
  7.5000000E+09     2.7765497E-02     1.7164238E+02     9.9961690E-01    -3.0455567E+01     9.9961164E-01    -3.0455434E+01     2.7767012E-02    -5.2546251E+01   
  8.0000000E+09     3.5776210E-02     1.7599593E+02     9.9935560E-01    -3.3797263E+01     9.9935695E-01    -3.3797429E+01     3.5777782E-02    -6.3599309E+01   
  8.5000000E+09     6.1709719E-02     1.7123058E+02     9.7912213E-01    -3.7326030E+01     9.7911805E-01    -3.7326032E+01     3.3116479E-02    -1.0130494E+02   
  9.0000000E+09     6.7490670E-02     1.5324134E+02     9.7022715E-01    -3.9274493E+01     9.7022993E-01    -3.9274561E+01     1.7070001E-02    -1.0142375E+02   
  9.5000000E+09     6.4958799E-02     1.3694950E+02     9.7347752E-01    -4.1072080E+01     9.7347479E-01    -4.1072188E+01     1.3538133E-02    -3.5057524E+01   
  1.0000000E+10     5.8379233E-02     1.3648273E+02     9.8176836E-01    -4.3937650E+01     9.8176714E-01    -4.3937481E+01     2.3646099E-02    -4.6043323E+01   
  1.0500000E+10     5.7529947E-02     1.3527737E+02     9.8436219E-01    -4.6728748E+01     9.8436279E-01    -4.6728702E+01     2.8190440E-02    -5.1263272E+01   
  1.1000000E+10     5.7806232E-02     1.3384845E+02     9.8583066E-01    -4.9506803E+01     9.8582625E-01    -4.9506529E+01     3.1586713E-02    -5.5599879E+01   
  1.1500000E+10     6.0134075E-02     1.3253255E+02     9.8672716E-01    -5.2350542E+01     9.8673146E-01    -5.2350269E+01     3.6052335E-02    -5.9816171E+01   
  1.2000000E+10     5.9340614E-02     1.2612197E+02     9.8252412E-01    -5.5047146E+01     9.8252208E-01    -5.5047631E+01     3.8257784E-02    -7.0487134E+01   
  1.2500000E+10     5.5148727E-02     1.2330761E+02     9.8130952E-01    -5.7618463E+01     9.8129225E-01    -5.7618281E+01     3.8569390E-02    -7.6658918E+01   
  1.3000000E+10     4.9321693E-02     1.2467208E+02     9.8073098E-01    -6.0178716E+01     9.8073749E-01    -6.0177979E+01     3.8983785E-02    -8.2164065E+01   
  1.3500000E+10     5.2930959E-02     1.3188426E+02     9.8201071E-01    -6.2761929E+01     9.8201043E-01    -6.2761894E+01     3.9311480E-02    -8.7613536E+01   
  1.4000000E+10     5.5674095E-02     1.3184036E+02     9.8236665E-01    -6.5459291E+01     9.8236551E-01    -6.5459455E+01     3.9995487E-02    -9.3729514E+01   
  1.4500000E+10     5.8202498E-02     1.3239317E+02     9.8223817E-01    -6.8196513E+01     9.8223492E-01    -6.8196163E+01     4.1237696E-02    -1.0063458E+02   
  1.5000000E+10     6.2480941E-02     1.3506849E+02     9.8120699E-01    -7.1104973E+01     9.8120016E-01    -7.1105216E+01     4.3886954E-02    -1.1113400E+02   
  1.5500000E+10     7.9821236E-02     1.2889863E+02     9.6451083E-01    -7.3776422E+01     9.6451367E-01    -7.3776570E+01     3.4770943E-02    -1.3417160E+02   
  1.6000000E+10     8.1679415E-02     1.1974222E+02     9.6048277E-01    -7.5810072E+01     9.6048239E-01    -7.5809793E+01     2.5874383E-02    -1.3528942E+02   
  1.6500000E+10     8.1751244E-02     1.1275561E+02     9.5950712E-01    -7.7968721E+01     9.5950199E-01    -7.7968379E+01     2.0565326E-02    -1.3182095E+02   
  1.7000000E+10     8.0881337E-02     1.0606560E+02     9.5986108E-01    -8.0146900E+01     9.5985267E-01    -8.0146808E+01     1.6867255E-02    -1.2289207E+02   
  1.7500000E+10     7.3712524E-02     9.9415144E+01     9.6614186E-01    -8.2332513E+01     9.6613681E-01    -8.2332349E+01     1.9017625E-02    -1.0233982E+02   
  1.8000000E+10     7.0222922E-02     9.8584726E+01     9.6966929E-01    -8.4947791E+01     9.6967326E-01    -8.4947302E+01     2.2517111E-02    -1.0564687E+02   
  1.8500000E+10     6.9335712E-02     9.7329085E+01     9.7143734E-01    -8.7560719E+01     9.7143199E-01    -8.7561078E+01     2.4686082E-02    -1.0901840E+02   
  1.9000000E+10     6.7858987E-02     9.4286739E+01     9.7127962E-01    -9.0111477E+01     9.7127559E-01    -9.0111409E+01     2.5809975E-02    -1.1476182E+02   
  1.9500000E+10     6.5983296E-02     9.2221169E+01     9.7157918E-01    -9.2648064E+01     9.7157851E-01    -9.2648166E+01     2.6437052E-02    -1.1952996E+02   
  2.0000000E+10     6.4284530E-02     9.0750702E+01     9.7172791E-01    -9.5196832E+01     9.7172485E-01    -9.5196865E+01     2.6981535E-02    -1.2474199E+02   
  2.0500000E+10     6.2331722E-02     8.9947849E+01     9.7178936E-01    -9.7753849E+01     9.7178862E-01    -9.7753242E+01     2.7434578E-02    -1.3015718E+02   
  2.1000000E+10     6.0148379E-02     9.0886851E+01     9.7160746E-01    -1.0033589E+02     9.7160486E-01    -1.0033617E+02     2.7883895E-02    -1.3659295E+02   
