! S-parameter export from POSTFEKO
! Filename: circular_5wg_5modes_1mm_2cm_1mm
! Creation date: 2020-01-18 02:16:51
! 
# Hz S MA R    5.0000000E+01 
  4.0000000E+09     5.4548710E-01    -4.2942212E+01     1.7265963E-05     4.8562847E+01     7.9798116E-02     1.5934966E+02     2.3201828E-05    -1.0783491E+02   
                   4.3284864E-02    -1.9337581E+01   
                   1.9749972E-05     7.5272619E+01     1.0504986E-02     4.7907283E+00     6.8281380E-06    -9.0252876E+01     9.1529558E-03    -1.7745779E+02   
                   3.3752210E-06     8.9725640E+01   
                   7.9798026E-02     1.5935142E+02     6.1046354E-06    -9.5757736E+01     2.1739136E-02    -5.6269523E+00     7.5475225E-06     8.1725708E+01   
                   1.3637207E-02     1.7543327E+02   
                   2.1956513E-05    -1.0817030E+02     9.1477735E-03    -1.7745592E+02     7.2011777E-06     8.4225284E+01     7.8330618E-03     1.3745632E+00   
                   4.6066060E-06    -8.9061274E+01   
                   4.3287758E-02    -1.9335248E+01     2.4750882E-06     1.0796168E+02     1.3638049E-02     1.7543597E+02     3.6990400E-06    -7.2604904E+01   
                   9.2203804E-03    -3.4382344E+00   
  4.5000000E+09     8.5502494E-01    -1.3892823E+02     1.8627307E-05     2.9765827E+01     6.7862163E-02     1.0962099E+02     2.1459020E-05    -1.4837889E+02   
                   3.6493240E-02    -6.7524043E+01   
                   1.8277100E-05     3.3319797E+01     9.8985294E-03     3.0095222E+01     6.3473509E-06    -9.6517623E+01     8.8657405E-03    -1.6503848E+02   
                   3.2302321E-06     1.1033636E+02   
                   6.7863132E-02     1.0962109E+02     5.4522417E-06    -9.6135634E+01     2.0682333E-02    -2.0592616E+01     7.3274861E-06     7.7479502E+01   
                   1.3035571E-02     1.6287923E+02   
                   2.1340087E-05    -1.5347507E+02     8.8651972E-03    -1.6504350E+02     7.9477518E-06     7.8938365E+01     7.7495578E-03     7.8255111E+00   
                   4.5077669E-06    -9.5794843E+01   
                   3.6495862E-02    -6.7524726E+01     3.4473211E-06     1.1477731E+02     1.3034993E-02     1.6287802E+02     3.3136003E-06    -9.9263984E+01   
                   8.8731964E-03    -1.3186193E+01   
  5.0000000E+09     1.1771231E-01     1.5945282E+02     1.7055593E-05     4.2025779E+01     5.3813866E-02     1.1909886E+02     1.8543123E-05    -1.4204412E+02   
                   2.8712267E-02    -5.6736429E+01   
                   1.6362530E-05     3.8968696E+01     8.6674794E-03     2.2003342E+01     7.2772386E-06    -9.2732034E+01     8.9390857E-03    -1.7052582E+02   
                   3.7386234E-06     9.9090627E+01   
                   5.3815218E-02     1.1909933E+02     6.7863834E-06    -8.9304232E+01     1.7958845E-02    -1.0511570E+01     6.5084455E-06     8.2109683E+01   
                   1.1533078E-02     1.7129253E+02   
                   2.0653815E-05    -1.4112853E+02     8.9370682E-03    -1.7051599E+02     7.6629700E-06     8.4077500E+01     7.9851314E-03     4.8017617E+00   
                   4.9871904E-06    -8.6454761E+01   
                   2.8716510E-02    -5.6736912E+01     3.6299517E-06     9.6571468E+01     1.1532637E-02     1.7129139E+02     4.2886227E-06    -9.2663226E+01   
                   8.0529246E-03    -6.6647629E+00   
  5.5000000E+09     4.2127001E-02     1.5469430E+02     1.8247235E-05     3.4670530E+01     4.8607359E-02     1.1207482E+02     1.8148617E-05    -1.5084176E+02   
                   2.5754793E-02    -6.2504673E+01   
                   1.6362654E-05     3.8549832E+01     4.8225525E-03     4.0833904E+01     7.5592226E-06    -8.5864664E+01     7.7092657E-03    -1.6960457E+02   
                   3.8308184E-06     1.0119844E+02   
                   4.8607520E-02     1.1207404E+02     7.1131809E-06    -9.0014119E+01     1.9014822E-02    -7.4365321E+00     7.9364437E-06     8.9086243E+01   
                   1.2005204E-02     1.7378516E+02   
                   1.9534231E-05    -1.4856365E+02     7.7081798E-03    -1.6960743E+02     8.5756080E-06     8.8346410E+01     7.6496956E-03     4.6031510E+00   
                   5.2335021E-06    -9.0826457E+01   
                   2.5755850E-02    -6.2504096E+01     4.1737823E-06     9.9649648E+01     1.2006968E-02     1.7378360E+02     4.8096709E-06    -9.7983672E+01   
                   8.2626028E-03    -4.8058258E+00   
  6.0000000E+09     1.4131296E-02     1.3793336E+02     1.4482591E-05     2.8652150E+01     4.5218764E-02     1.0637755E+02     1.7757515E-05    -1.4812262E+02   
                   2.3784181E-02    -6.6841724E+01   
                   1.6671319E-05     3.0644901E+01     4.6105530E-03     1.3164927E+02     8.0122811E-06    -9.8437171E+01     6.0240194E-03    -1.6588912E+02   
                   4.4171095E-06     9.9314210E+01   
                   4.5220010E-02     1.0637724E+02     7.5906295E-06    -8.0040559E+01     2.0362325E-02    -5.8431843E+00     1.0390065E-05     8.8844878E+01   
                   1.2607118E-02     1.7506765E+02   
                   1.9216540E-05    -1.4922025E+02     6.0237198E-03    -1.6588248E+02     9.6302774E-06     8.7684236E+01     7.2163520E-03     4.9821659E+00   
                   5.3336686E-06    -8.9032325E+01   
                   2.3786653E-02    -6.6842792E+01     3.6492855E-06     1.0506493E+02     1.2607234E-02     1.7506981E+02     5.2133134E-06    -7.8834988E+01   
                   8.5257122E-03    -3.8597238E+00   
  6.5000000E+09     8.6086977E-03     2.3076425E+01     1.5789216E-05     3.8320704E+01     4.2950707E-02     1.0149288E+02     2.0811998E-05    -1.5467568E+02   
                   2.2449077E-02    -7.0539444E+01   
                   1.5388092E-05     3.1172671E+01     1.4369501E-02     1.6372128E+02     9.6136180E-06    -8.3330310E+01     3.7051080E-03    -1.5364516E+02   
                   4.4233287E-06     1.0480203E+02   
                   4.2947734E-02     1.0149646E+02     7.3602011E-06    -8.9296919E+01     2.2098860E-02    -4.7902937E+00     1.2084588E-05     8.6107924E+01   
                   1.3349277E-02     1.7589853E+02   
                   2.0445952E-05    -1.6122717E+02     3.7050619E-03    -1.5362660E+02     1.0863635E-05     8.5891909E+01     6.6485711E-03     5.8165693E+00   
                   6.3630470E-06    -9.1594144E+01   
                   2.2457018E-02    -7.0537949E+01     5.5578997E-06     1.0215125E+02     1.3350489E-02     1.7590053E+02     6.2965683E-06    -8.4502754E+01   
                   8.8372408E-03    -3.2672907E+00   
  7.0000000E+09     2.2314277E-02    -1.5972239E+01     1.4694749E-05     2.7810725E+01     4.1555077E-02     9.6830521E+01     1.8365865E-05    -1.5318326E+02   
                   2.1551147E-02    -7.4073930E+01   
                   1.8383467E-05     4.3317568E+01     3.2948530E-02     1.7128435E+02     7.7468079E-06    -8.5999405E+01     2.0135968E-03    -7.3638065E+01   
                   3.4594502E-06     1.2032420E+02   
                   4.1546612E-02     9.6825099E+01     7.8023201E-06    -8.6544650E+01     2.4274882E-02    -4.0390366E+00     1.2041941E-05     8.7655764E+01   
                   1.4244081E-02     1.7648579E+02   
                   1.5411978E-05    -1.6693114E+02     2.0139835E-03    -7.3555475E+01     1.2774067E-05     9.1245590E+01     5.8807567E-03     7.2952343E+00   
                   7.5438039E-06    -9.7331914E+01   
                   2.1563023E-02    -7.4081769E+01     4.3063175E-06     9.7383641E+01     1.4244728E-02     1.7648731E+02     6.7432513E-06    -9.5953603E+01   
                   9.1979795E-03    -2.8535312E+00   
  7.5000000E+09     3.4799016E-02    -3.4065891E+01     1.3542315E-05     2.8374114E+01     4.0849577E-02     9.2196491E+01     2.0779421E-05    -1.5889798E+02   
                   2.0964471E-02    -7.7642296E+01   
                   1.4647357E-05     5.4350863E+00     7.1888999E-02     1.7469033E+02     1.0005818E-05    -7.5173213E+01     7.7937031E-03    -1.7834968E+01   
                   3.1275508E-06     1.0300050E+02   
                   4.0849533E-02     9.2194086E+01     8.0986710E-06    -7.8324038E+01     2.7038631E-02    -3.4721020E+00     1.3584102E-05     9.0543345E+01   
                   1.5333038E-02     1.7692456E+02   
                   2.0422198E-05    -1.3803604E+02     7.7996095E-03    -1.7828111E+01     1.1051795E-05     8.3525463E+01     4.7392065E-03     1.0422345E+01   
                   7.5192891E-06    -8.5951657E+01   
                   2.0968705E-02    -7.7636930E+01     3.5394587E-06     1.1118321E+02     1.5333891E-02     1.7693016E+02     7.8851327E-06    -9.1435095E+01   
                   9.6176013E-03    -2.5504086E+00   
  8.0000000E+09     4.5220465E-02    -5.0863018E+01     9.7059011E-06     4.1054080E+01     4.0800639E-02     8.7632953E+01     2.0362735E-05    -1.5714214E+02   
                   2.0637306E-02    -8.1253132E+01   
                   1.5109977E-05     3.3145262E+01     2.3391766E-01     1.6379934E+02     2.4427309E-06    -4.6369277E+01     2.9492392E-02    -1.8293306E+01   
                   2.6606519E-06     1.7936855E+02   
                   4.0796889E-02     8.7631521E+01     5.8609340E-06    -4.1842246E+01     3.0688873E-02    -3.0788796E+00     1.4704315E-05     8.9848241E+01   
                   1.6701531E-02     1.7722321E+02   
                   1.8413469E-05    -1.6063082E+02     2.9492415E-02    -1.8293298E+01     1.3723901E-05     8.8434939E+01     2.5512551E-03     4.1501880E+01   
                   7.9693074E-06    -9.1417040E+01   
                   2.0643303E-02    -8.1255636E+01     4.3123301E-06     1.7835988E+02     1.6702079E-02     1.7722239E+02     8.0566348E-06    -9.2199699E+01   
                   1.0119882E-02    -2.3437830E+00   
  8.5000000E+09     5.5528128E-02    -7.1539298E+01     2.1217537E-05     6.7155582E+01     4.2654933E-02     8.2890129E+01     1.9755317E-05    -1.6459645E+02   
                   2.0966064E-02    -8.5400431E+01   
                   1.3218169E-05     4.6094971E+01     4.2243921E-01     1.2438766E+02     1.5355400E-05    -8.8858597E+00     5.4026384E-02    -4.9397200E+01   
                   1.0078105E-05     1.7899680E+02   
                   4.2652268E-02     8.2883134E+01     1.6706364E-05     5.5434078E+00     3.5472858E-02    -3.2286991E+00     1.7814668E-05     9.3263902E+01   
                   1.8390653E-02     1.7710988E+02   
                   2.4339190E-05    -1.4690475E+02     5.4033661E-02    -4.9398159E+01     1.7557244E-05     9.8475357E+01     5.3237957E-03     8.3301844E+01   
                   7.7391641E-06    -9.0501079E+01   
                   2.0969301E-02    -8.5386997E+01     1.1363143E-05     1.7285299E+02     1.8390833E-02     1.7711304E+02     8.4698910E-06    -7.3389725E+01   
                   1.0701883E-02    -2.4126861E+00   
  9.0000000E+09     5.6287185E-02    -1.0973686E+02     3.4941262E-05     4.7456478E+01     4.6386492E-02     7.3002218E+01     2.2979994E-05    -1.6400692E+02   
                   2.1439376E-02    -9.3811825E+01   
                   2.2255295E-05     4.7179003E+01     7.4189692E-01     7.8998619E+01     3.3323276E-05    -2.8435192E+01     8.2229263E-02    -8.6282737E+01   
                   2.0858051E-05     1.6082276E+02   
                   4.6387429E-02     7.3005840E+01     3.8780653E-05    -2.2497316E+01     4.1453808E-02    -3.9217674E+00     2.1232210E-05     9.9906791E+01   
                   2.0326500E-02     1.7662082E+02   
                   2.6000193E-05    -1.6817570E+02     8.2230728E-02    -8.6279907E+01     2.0411033E-05     9.4398232E+01     1.0320575E-02     7.0976799E+01   
                   1.0574850E-05    -8.3156156E+01   
                   2.1442432E-02    -9.3822770E+01     1.9333212E-05     1.5462970E+02     2.0327353E-02     1.7662081E+02     1.0110207E-05    -8.1089958E+01   
                   1.1311017E-02    -2.7183238E+00   
  9.5000000E+09     1.3233932E-02    -1.5499629E+02     1.1638770E-05     3.2910948E+01     4.2620204E-02     5.8913926E+01     2.0099703E-05    -1.7277398E+02   
                   1.8742137E-02    -1.0241291E+02   
                   1.6310750E-05     6.1154473E+01     7.7382227E-01    -1.8537497E+00     2.5739037E-05    -3.4905859E+01     4.5717715E-02    -9.8988397E+01   
                   1.3747434E-05     1.4836451E+02   
                   4.2620862E-02     5.8915344E+01     2.0658083E-05    -2.5692195E+01     4.8977012E-02    -3.0596713E+00     2.5220685E-05     9.3460218E+01   
                   2.2567617E-02     1.7737174E+02   
                   2.4799233E-05    -1.7736882E+02     4.5712020E-02    -9.8988797E+01     2.3930419E-05     9.2767984E+01     8.3049934E-03     3.4162554E+01   
                   1.2318496E-05    -8.6695024E+01   
                   1.8744839E-02    -1.0241478E+02     9.8766933E-06     1.4269094E+02     2.2568324E-02     1.7736878E+02     1.2783441E-05    -8.9636521E+01   
                   1.1959531E-02    -2.1513543E+00   
  1.0000000E+10     1.0986814E-02    -8.7792489E+01     2.3561635E-05     5.3528083E+01     4.1962630E-02     5.4650831E+01     1.8028327E-05    -1.6816137E+02   
                   1.8105535E-02    -1.0420353E+02   
                   3.1137289E-05     4.1175455E+01     4.2807920E-01    -1.1273968E+01     4.5781261E-05    -3.9317474E+01     6.8280534E-02    -1.1300094E+02   
                   2.6076757E-05     1.4173903E+02   
                   4.1964702E-02     5.4647282E+01     5.1840769E-05    -4.3554671E+01     6.2494918E-02    -2.1776975E+00     2.8617298E-05     9.4054352E+01   
                   2.6341776E-02     1.7801077E+02   
                   2.1791048E-05    -1.7381192E+02     6.8286924E-02    -1.1300115E+02     2.6149680E-05     9.2930227E+01     6.2312110E-03     5.2792742E+01   
                   1.2589006E-05    -8.2211016E+01   
                   1.8108292E-02    -1.0419430E+02     2.3669900E-05     1.4718578E+02     2.6342036E-02     1.7801204E+02     1.2646349E-05    -8.4889927E+01   
                   1.2995544E-02    -1.7528818E+00   
  1.0500000E+10     1.2779505E-02    -5.9089460E+01     3.2931525E-05     1.4864901E+01     4.3510907E-02     4.7863382E+01     2.2496706E-05    -1.6910180E+02   
                   1.7785050E-02    -1.0812388E+02   
                   4.5812212E-05     2.5683428E+01     3.7106076E-01    -2.4365356E+01     5.9395365E-05    -5.0061005E+01     7.2583945E-02    -1.2233212E+02   
                   2.9559475E-05     1.3302707E+02   
                   4.3511918E-02     4.7871476E+01     6.9941831E-05    -4.7243436E+01     8.5110150E-02    -1.6997675E+00     3.2885921E-05     9.4875454E+01   
                   3.1866629E-02     1.7836037E+02   
                   2.1599835E-05    -1.5797900E+02     7.2579888E-02    -1.2233158E+02     3.2338715E-05     9.6867733E+01     5.6958980E-03     7.0901124E+01   
                   1.4226054E-05    -8.1077540E+01   
                   1.7780841E-02    -1.0812805E+02     2.1318331E-05     1.4546401E+02     3.1867713E-02     1.7836024E+02     1.4446364E-05    -7.8627142E+01   
                   1.4324628E-02    -1.5275886E+00   
  1.1000000E+10     1.7211707E-02    -4.2264373E+01     4.2144856E-05     2.6016071E+01     4.8713920E-02     3.9918994E+01     2.2836511E-05    -1.7823430E+02   
                   1.7924106E-02    -1.1325792E+02   
                   3.7373040E-05     3.7533822E+01     3.3060590E-01    -3.9210816E+01     8.0036016E-05    -5.4641121E+01     7.5843858E-02    -1.2922793E+02   
                   3.5063200E-05     1.2893148E+02   
                   4.8718286E-02     3.9927537E+01     8.0727300E-05    -5.1224713E+01     1.3546938E-01    -1.3093447E+00     4.0371281E-05     9.7835747E+01   
                   4.2016765E-02     1.7862826E+02   
                   2.4726418E-05    -1.7912825E+02     7.5842087E-02    -1.2922795E+02     4.1755319E-05     9.6043802E+01     5.9717948E-03     9.3437059E+01   
                   1.5180280E-05    -7.8438767E+01   
                   1.7919432E-02    -1.1327077E+02     3.2824423E-05     1.2241090E+02     4.2019341E-02     1.7862859E+02     1.6435152E-05    -8.3493696E+01   
                   1.6367118E-02    -1.3711935E+00   
  1.1500000E+10     2.5941815E-02    -3.7006311E+01     4.1600629E-05     6.1210543E+00     5.7824247E-02     1.9047841E+01     2.0564186E-05    -1.7595212E+02   
                   1.7576253E-02    -1.2413932E+02   
                   3.6875647E-05     4.6719627E+00     2.8684653E-01    -5.3757784E+01     1.1149084E-04    -6.5968948E+01     7.9427483E-02    -1.3415933E+02   
                   3.9572548E-05     1.2077182E+02   
                   5.7826232E-02     1.9050031E+01     1.1332251E-04    -6.4617476E+01     2.3916882E-01    -1.8735119E+01     5.7327517E-05     9.1850014E+01   
                   5.9990150E-02     1.6925423E+02   
                   2.5041695E-05     1.7966218E+02     7.9426066E-02    -1.3415950E+02     5.4508801E-05     9.0755783E+01     7.5192325E-03     1.1589188E+02   
                   1.9220665E-05    -8.0597235E+01   
                   1.7576886E-02    -1.2413059E+02     3.8375785E-05     1.1969637E+02     5.9991908E-02     1.6925384E+02     1.9003943E-05    -8.5697458E+01   
                   1.9497304E-02    -5.2851213E+00   
  1.2000000E+10     3.5842126E-02    -4.5352803E+01     3.3413146E-05    -3.9343556E+00     6.3106413E-02    -1.2475316E+01     2.3000812E-05     1.7909424E+02   
                   1.5067001E-02    -1.3837494E+02   
                   4.0822077E-05    -7.0865602E+00     2.3819387E-01    -6.6140114E+01     1.6007888E-04    -8.2771957E+01     8.4788931E-02    -1.3750196E+02   
                   4.7918726E-05     1.1145291E+02   
                   6.3112194E-02    -1.2474509E+01     1.6304154E-04    -8.5418877E+01     4.2458780E-01    -4.5510824E+01     7.3689681E-05     7.7919936E+01   
                   8.6487876E-02     1.5088994E+02   
                   2.0902147E-05    -1.7501456E+02     8.4784002E-02    -1.3750460E+02     7.2975869E-05     7.7552654E+01     1.0829155E-02     1.3229022E+02   
                   2.1297376E-05    -8.7724642E+01   
                   1.5066938E-02    -1.3837287E+02     4.7060696E-05     1.1663637E+02     8.6492029E-02     1.5088888E+02     2.3270911E-05    -9.0219287E+01   
                   2.3335134E-02    -1.4945374E+01   
  1.2500000E+10     4.1640837E-02    -5.8317650E+01     3.1131076E-05    -5.1603965E+00     4.9644015E-02    -5.9498682E+01     1.8430662E-05     1.7816466E+02   
                   9.1170932E-03    -1.3905735E+02   
                   2.3109512E-05    -3.6818929E+00     1.9242755E-01    -7.4313343E+01     1.9292672E-04    -1.1450024E+02     9.3420744E-02    -1.4051256E+02   
                   5.2696250E-05     9.7053060E+01   
                   4.9650560E-02    -5.9476382E+01     2.0327153E-04    -1.1623050E+02     6.4924313E-01    -9.0652327E+01     8.7135985E-05     5.3189719E+01   
                   1.0162397E-01     1.1745394E+02   
                   1.9421232E-05     1.7611953E+02     9.3424311E-02    -1.4050859E+02     8.2541274E-05     5.2399062E+01     1.6109170E-02     1.4144867E+02   
                   2.1377848E-05    -9.7226540E+01   
                   9.1157932E-03    -1.3900702E+02     4.9064862E-05     9.4740330E+01     1.0163191E-01     1.1745254E+02     2.0916335E-05    -1.0107321E+02   
                   2.3472235E-02    -3.2776529E+01   
  1.3000000E+10     4.5122399E-02    -6.7063754E+01     2.0314158E-05     1.6064481E+01     2.0205995E-02    -1.0420272E+02     2.0159495E-05    -1.7229466E+02   
                   9.5143038E-03    -1.1057618E+02   
                   2.5080850E-05     1.2302648E+01     1.5501921E-01    -7.6953199E+01     1.5448044E-04    -1.4218666E+02     1.0484453E-01    -1.4387107E+02   
