! S-parameter export from POSTFEKO
! Filename: Cone_5cm_long
! Creation date: 2020-02-15 11:44:48
! 
# Hz S MA R    5.0000000E+01 
  1.0000000E+09     1.3186727E-01    -1.7996352E+02     8.6813276E-01    -5.5417245E-03     8.6813276E-01    -5.5417245E-03     1.3186727E-01    -1.7996352E+02   
  1.5000000E+09     1.7674944E-01    -1.7999274E+02     8.2325056E-01    -1.5580241E-03     8.2325056E-01    -1.5580241E-03     1.7674944E-01    -1.7999274E+02   
  2.0000000E+09     3.5285312E-01    -1.7999947E+02     6.4714688E-01    -2.8939820E-04     6.4714688E-01    -2.8939820E-04     3.5285312E-01    -1.7999947E+02   
  2.5000000E+09     9.9999975E-01     9.3915420E+01     1.3650758E+00     4.6957702E+01     1.3650758E+00     4.6957702E+01     9.9999975E-01     9.3915420E+01   
  3.0000000E+09     9.9999859E-01     1.2474178E+01     1.9881603E+00     6.2370845E+00     1.9881603E+00     6.2370845E+00     9.9999859E-01     1.2474178E+01   
  3.5000000E+09     9.9999874E-01    -8.1467945E+01     1.5154942E+00    -4.0733942E+01     1.5154942E+00    -4.0733942E+01     9.9999874E-01    -8.1467945E+01   
  4.0000000E+09     1.0000001E+00     1.6293898E+02     2.9667205E-01     8.1469518E+01     2.9667205E-01     8.1469518E+01     1.0000001E+00     1.6293898E+02   
  4.5000000E+09     3.8283586E-01    -3.6811797E-01     1.3828301E+00    -1.0191264E-01     1.3828301E+00    -1.0191264E-01     3.8283586E-01    -3.6811797E-01   
  5.0000000E+09     5.2735659E-02    -4.6039047E+01     1.0373022E+00    -2.0971930E+00     1.0373022E+00    -2.0971930E+00     5.2735659E-02    -4.6039047E+01   
  5.5000000E+09     1.2029133E-02     4.2536837E+01     1.0088964E+00     4.6185214E-01     1.0088964E+00     4.6185214E-01     1.2029133E-02     4.2536837E+01   
  6.0000000E+09     2.1836952E-02    -1.8362486E+01     1.0207482E+00    -3.8614289E-01     1.0207482E+00    -3.8614289E-01     2.1836952E-02    -1.8362486E+01   
  6.5000000E+09     3.7360513E-02    -1.3394656E+02     9.7444363E-01    -1.5818264E+00     9.7444363E-01    -1.5818264E+00     3.7360513E-02    -1.3394656E+02   
  7.0000000E+09     8.1190125E-02     1.3289724E+02     9.4660548E-01     3.6024294E+00     9.4660548E-01     3.6024294E+00     8.1190125E-02     1.3289724E+02   
  7.5000000E+09     8.7368337E-02     4.2963182E+01     1.0656003E+00     3.2032622E+00     1.0656003E+00     3.2032622E+00     8.7368337E-02     4.2963182E+01   
  8.0000000E+09     8.8628266E-02    -6.4491711E+01     1.0412440E+00    -4.4058402E+00     1.0412440E+00    -4.4058402E+00     8.8628266E-02    -6.4491711E+01   
  8.5000000E+09     1.6598904E-01     1.7367406E+02     8.3522191E-01     1.2547418E+00     8.3522191E-01     1.2547418E+00     1.6598904E-01     1.7367406E+02   
  9.0000000E+09     2.1993350E-01     6.9137877E+01     1.0977324E+00     1.0790443E+01     1.0977324E+00     1.0790443E+01     2.1993350E-01     6.9137877E+01   
  9.5000000E+09     1.2835490E-01    -3.8398691E+01     1.1034765E+00    -4.1431721E+00     1.1034765E+00    -4.1431721E+00     1.2835490E-01    -3.8398691E+01   
  1.0000000E+10     9.1790072E-02    -1.2623517E+02     9.4863640E-01    -4.4762814E+00     9.4863640E-01    -4.4762814E+00     9.1790072E-02    -1.2623517E+02   
  1.0500000E+10     7.8061241E-02     1.5157910E+02     9.3208784E-01     2.2844053E+00     9.3208784E-01     2.2844053E+00     7.8061241E-02     1.5157910E+02   
  1.1000000E+10     5.7773384E-02     9.0077459E+01     1.0015895E+00     3.3067503E+00     1.0015895E+00     3.3067503E+00     5.7773384E-02     9.0077459E+01   
  1.1500000E+10     3.5561708E-02     5.8137596E+01     1.0192200E+00     1.6981317E+00     1.0192200E+00     1.6981317E+00     3.5561708E-02     5.8137596E+01   
  1.2000000E+10     4.4167943E-02     3.2892783E+01     1.0373646E+00     1.3249266E+00     1.0373646E+00     1.3249266E+00     4.4167943E-02     3.2892783E+01   
  1.2500000E+10     6.9147840E-02    -5.6600211E+01     1.0396683E+00    -3.1830120E+00     1.0396683E+00    -3.1830120E+00     6.9147840E-02    -5.6600211E+01   
  1.3000000E+10     5.9281499E-02     1.7548279E+02     9.4091423E-01     2.8430956E-01     9.4091423E-01     2.8430956E-01     5.9281499E-02     1.7548279E+02   
  1.3500000E+10     4.5992681E-02     1.0483891E+02     9.8922074E-01     2.5759271E+00     9.8922074E-01     2.5759271E+00     4.5992681E-02     1.0483891E+02   
  1.4000000E+10     2.9096489E-02     5.4129711E+01     1.0173224E+00     1.3280480E+00     1.0173224E+00     1.3280480E+00     2.9096489E-02     5.4129711E+01   
  1.4500000E+10     1.5671289E-02     3.8731946E+01     1.0122724E+00     5.5499291E-01     1.0122724E+00     5.5499291E-01     1.5671289E-02     3.8731946E+01   
  1.5000000E+10     2.1718268E-02    -4.8743225E+00     1.0216414E+00    -1.0349449E-01     1.0216414E+00    -1.0349449E-01     2.1718268E-02    -4.8743225E+00   
  1.5500000E+10     3.1984190E-02    -1.1612421E+02     9.8633489E-01    -1.6683790E+00     9.8633489E-01    -1.6683790E+00     3.1984190E-02    -1.1612421E+02   
  1.6000000E+10     5.4532758E-02     1.4213178E+02     9.5753580E-01     2.0034291E+00     9.5753580E-01     2.0034291E+00     5.4532758E-02     1.4213178E+02   
  1.6500000E+10     6.0269398E-02     3.4762108E+01     1.0500753E+00     1.8753452E+00     1.0500753E+00     1.8753452E+00     6.0269398E-02     3.4762108E+01   
  1.7000000E+10     1.7511764E-02    -1.4735705E+02     9.8529953E-01    -5.4929238E-01     9.8529953E-01    -5.4929238E-01     1.7511764E-02    -1.4735705E+02   
  1.7500000E+10     2.2455444E-02     1.0808912E+02     9.9325706E-01     1.2314090E+00     9.9325706E-01     1.2314090E+00     2.2455444E-02     1.0808912E+02   
  1.8000000E+10     2.1977977E-02     3.7624495E+01     1.0174957E+00     7.5555229E-01     1.0174957E+00     7.5555229E-01     2.1977977E-02     3.7624495E+01   
  1.8500000E+10     1.6500540E-02    -5.6046034E+01     1.0093088E+00    -7.7699714E-01     1.0093088E+00    -7.7699714E-01     1.6500540E-02    -5.6046034E+01   
  1.9000000E+10     2.0726764E-02    -1.6765878E+02     9.7976220E-01    -2.5906396E-01     9.7976220E-01    -2.5906396E-01     2.0726764E-02    -1.6765878E+02   
  1.9500000E+10     2.3224314E-02     1.1985242E+02     9.8864490E-01     1.1674272E+00     9.8864490E-01     1.1674272E+00     2.3224314E-02     1.1985242E+02   
  2.0000000E+10     1.4509406E-02     7.4691911E+01     1.0039282E+00     7.9872080E-01     1.0039282E+00     7.9872080E-01     1.4509406E-02     7.4691911E+01   
  2.0500000E+10     2.2275759E-02     8.5945911E+01     1.0018213E+00     1.2709030E+00     1.0018213E+00     1.2709030E+00     2.2275759E-02     8.5945911E+01   
  2.1000000E+10     2.9589701E-02     2.0568112E+01     1.0277561E+00     5.7954106E-01     1.0277561E+00     5.7954106E-01     2.9589701E-02     2.0568112E+01   
